(1609772212.100000) can0 1F334455#0010203040506070
(1609772212.110000) can0 1F334455#0111213141516171
(1609772212.120000) can0 1F334455#0212223242526272
(1609772212.130000) can0 1F334455#0313233343536373
(1609772212.140000) can0 1F334455#0414243444546474
(1609772212.150000) can0 1F334455#0515253545556575
(1609772212.160000) can0 1F334455#0616263646566676
(1609772212.170000) can0 1F334455#0717273747576777
(1609772212.180000) can0 1F334455#0818283848586878
(1609772212.190000) can0 1F334455#0919293949596979
(1609772212.200000) can0 1F334455#0A1A2A3A4A5A6A7A
(1609772212.210000) can0 1F334455#0B1B2B3B4B5B6B7B
(1609772212.220000) can0 1F334455#0C1C2C3C4C5C6C7C
(1609772212.230000) can0 1F334455#0D1D2D3D4D5D6D7D
(1609772212.240000) can0 1F334455#0E1E2E3E4E5E6E7E
(1609772212.250000) can0 1F334455#0F1F2F3F4F5F6F7F
(1609772212.260000) can0 1F334455#1020304050607080
(1609772212.270000) can0 1F334455#1121314151617181
(1609772212.280000) can0 1F334455#1222324252627282
(1609772212.290000) can0 1F334455#1323334353637383
(1609772212.300000) can0 2A001122#AA55AA55AA55AA55
(1609772212.310000) can0 2A001122#AB55AA55AA55AA55
(1609772212.320000) can0 2A001122#AC55AA55AA55AA55
(1609772212.330000) can0 2A001122#AD55AA55AA55AA55
(1609772212.340000) can0 2A001122#AE55AA55AA55AA55
(1609772212.350000) can0 2A001122#AF55AA55AA55AA55
(1609772212.360000) can0 2A001122#B055AA55AA55AA55
(1609772212.370000) can0 2A001122#B155AA55AA55AA55
(1609772212.380000) can0 2A001122#B255AA55AA55AA55
(1609772212.390000) can0 2A001122#B355AA55AA55AA55
(1609772212.400000) can0 2A001122#B455AA55AA55AA55
(1609772212.410000) can0 2A001122#B555AA55AA55AA55
(1609772212.420000) can0 2A001122#B655AA55AA55AA55
(1609772212.430000) can0 2A001122#B755AA55AA55AA55
(1609772212.440000) can0 2A001122#B855AA55AA55AA55
(1609772212.450000) can0 2A001122#B955AA55AA55AA55
(1609772212.460000) can0 2A001122#BA55AA55AA55AA55
(1609772212.470000) can0 2A001122#BB55AA55AA55AA55
(1609772212.480000) can0 2A001122#BC55AA55AA55AA55
(1609772212.490000) can0 2A001122#BD55AA55AA55AA55
